
T1B08 000:004 SEGGER J-Link V6.16c Log File (0000ms, 0004ms total)
T1B08 000:004 DLL Compiled: Jun 16 2017 18:14:49 (0000ms, 0004ms total)
T1B08 000:004 Logging started @ 2017-09-08 18:36 (0000ms, 0004ms total)
T1B08 000:004 JLINK_SetWarnOutHandler(...) (0000ms, 0004ms total)
T1B08 000:004 JLINK_OpenEx(...)
Firmware: J-Link V9 compiled Jun 16 2017 16:15:10
Hardware: V9.20
Feature(s): RDI, GDB, FlashDL, FlashBP, JFlash, RDDIWEBSRV Webserver running on local port 19080 (0025ms, 0029ms total)
T1B08 000:004   returns O.K. (0025ms, 0029ms total)
T1B08 000:029 JLINK_GetEmuCaps()  returns 0xB9FF7BBF (0000ms, 0029ms total)
T1B08 000:029 JLINK_TIF_GetAvailable(...) (0001ms, 0030ms total)
T1B08 000:030 JLINK_SetErrorOutHandler(...) (0000ms, 0030ms total)
T1B08 000:030 JLINK_ExecCommand("ProjectFile = "D:\My private\study to japan\ROBOT\机器人图像传输\OV2640NEW\单片机代码\STM32F103R\STM32F103R\MDK_Project\JLinkSettings.ini"", ...).   returns 0x00 (0115ms, 0145ms total)
T1B08 000:148 JLINK_ExecCommand("Device = STM32F103RE", ...). Device "STM32F103RE" selected.  returns 0x00 (0003ms, 0148ms total)
T1B08 000:151 JLINK_ExecCommand("DisableConnectionTimeout", ...).   returns 0x01 (0000ms, 0148ms total)
T1B08 000:151 JLINK_GetHardwareVersion()  returns 0x16760 (0000ms, 0148ms total)
T1B08 000:151 JLINK_GetDLLVersion()  returns 61603 (0000ms, 0148ms total)
T1B08 000:151 JLINK_GetFirmwareString(...) (0000ms, 0148ms total)
T1B08 000:156 JLINK_GetDLLVersion()  returns 61603 (0000ms, 0148ms total)
T1B08 000:156 JLINK_GetCompileDateTime() (0000ms, 0148ms total)
T1B08 000:158 JLINK_GetFirmwareString(...) (0000ms, 0148ms total)
T1B08 000:159 JLINK_GetHardwareVersion()  returns 0x16760 (0000ms, 0148ms total)
T1B08 000:162 JLINK_TIF_Select(JLINKARM_TIF_SWD)  returns 0x00 (0005ms, 0153ms total)
T1B08 000:167 JLINK_SetSpeed(5000) (0001ms, 0154ms total)
T1B08 000:168 JLINK_GetId() >0x10B TIF>Found SW-DP with ID 0x1BA01477 >0x0D TIF> >0x28 TIF> >0x0D TIF> >0x28 TIF> >0x0D TIF> >0x28 TIF> >0x0D TIF> >0x28 TIF> >0x0D TIF> >0x21 TIF> >0x0D TIF> >0x28 TIF> >0x0D TIF> >0x28 TIF> >0x0D TIF> >0x28 TIF> >0x0D TIF> >0x21 TIF> >0x0D TIF> >0x21 TIF> >0x0D TIF> >0x28 TIF> >0x0D TIF> >0x21 TIF> >0x0D TIF> >0x21 TIF> >0x0D TIF> >0x28 TIF> >0x0D TIF> >0x21 TIF> >0x0D TIF> >0x21 TIF> >0x0D TIF> >0x28 TIF> >0x0D TIF> >0x21 TIF> >0x0D TIF> >0x21 TIF> >0x0D TIF> >0x28 TIF>
 >0x0D TIF> >0x21 TIF> >0x0D TIF> >0x21 TIF> >0x0D TIF> >0x28 TIF> >0x0D TIF> >0x21 TIF> >0x0D TIF> >0x21 TIF> >0x0D TIF> >0x28 TIF> >0x0D TIF> >0x21 TIF> >0x0D TIF> >0x21 TIF> >0x10B TIF>Found SW-DP with ID 0x1BA01477 >0x0D TIF> >0x28 TIF> >0x0D TIF> >0x28 TIF> >0x0D TIF> >0x28 TIF> >0x0D TIF> >0x28 TIF> >0x0D TIF> >0x21 TIF> >0x0D TIF> >0x28 TIF>Scanning APs, stopping at first AHB-AP found. >0x0D TIF> >0x28 TIF> >0x0D TIF> >0x21 TIF> >0x0D TIF> >0x21 TIF>AP[0] IDR: 0x14770011 (AHB-AP) >0x0D TIF>
 >0x28 TIF> >0x0D TIF> >0x21 TIF> >0x0D TIF> >0x21 TIF>AHB-AP ROM: 0xE00FF000 (Base addr. of first ROM table) >0x0D TIF> >0x28 TIF> >0x0D TIF> >0x28 TIF> >0x0D TIF> >0x28 TIF> >0x0D TIF> >0x21 TIF> >0x0D TIF> >0x21 TIF> >0x0D TIF> >0x28 TIF> >0x0D TIF> >0x21 TIF> >0x0D TIF> >0x21 TIF>CPUID reg: 0x411FC231. Implementer code: 0x41 (ARM)Found Cortex-M3 r1p1, Little endian. -- CPU_ReadMem(4 bytes @ 0xE000EDF0) -- CPU_WriteMem(4 bytes @ 0xE000EDF0) -- CPU_ReadMem(4 bytes @ 0xE0002000)
FPUnit: 6 code (BP) slots and 2 literal slots -- CPU_ReadMem(4 bytes @ 0xE000EDFC) -- CPU_WriteMem(4 bytes @ 0xE000EDFC) -- CPU_ReadMem(4 bytes @ 0xE0001000) -- CPU_WriteMem(4 bytes @ 0xE0001000) -- CPU_ReadMem(4 bytes @ 0xE000ED88) -- CPU_WriteMem(4 bytes @ 0xE000ED88) -- CPU_ReadMem(4 bytes @ 0xE000ED88) -- CPU_WriteMem(4 bytes @ 0xE000ED88)CoreSight components:ROMTbl[0] @ E00FF000 -- CPU_ReadMem(16 bytes @ 0xE00FF000) -- CPU_ReadMem(16 bytes @ 0xE000EFF0) -- CPU_ReadMem(16 bytes @ 0xE000EFE0)
ROMTbl[0][0]: E000E000, CID: B105E00D, PID: 001BB000 SCS -- CPU_ReadMem(16 bytes @ 0xE0001FF0) -- CPU_ReadMem(16 bytes @ 0xE0001FE0)ROMTbl[0][1]: E0001000, CID: B105E00D, PID: 001BB002 DWT -- CPU_ReadMem(16 bytes @ 0xE0002FF0) -- CPU_ReadMem(16 bytes @ 0xE0002FE0)ROMTbl[0][2]: E0002000, CID: B105E00D, PID: 000BB003 FPB -- CPU_ReadMem(16 bytes @ 0xE0000FF0) -- CPU_ReadMem(16 bytes @ 0xE0000FE0)ROMTbl[0][3]: E0000000, CID: B105E00D, PID: 001BB001 ITM -- CPU_ReadMem(16 bytes @ 0xE00FF010)
 -- CPU_ReadMem(16 bytes @ 0xE0040FF0) -- CPU_ReadMem(16 bytes @ 0xE0040FE0)ROMTbl[0][4]: E0040000, CID: B105900D, PID: 001BB923 TPIU-Lite -- CPU_ReadMem(16 bytes @ 0xE0041FF0) -- CPU_ReadMem(16 bytes @ 0xE0041FE0)ROMTbl[0][5]: E0041000, CID: B105900D, PID: 101BB924 ETM-M3 >0x0D TIF> >0x21 TIF>  returns 0x1BA01477 (0180ms, 0334ms total)
T1B08 000:348 JLINK_GetDLLVersion()  returns 61603 (0000ms, 0334ms total)
T1B08 000:348 JLINK_CORE_GetFound()  returns 0x30000FF (0000ms, 0334ms total)
T1B08 000:348 JLINK_GetDebugInfo(0x100 = JLINKARM_ROM_TABLE_ADDR_INDEX) -- Value=0xE00FF000  returns 0x00 (0000ms, 0334ms total)
T1B08 000:351 JLINK_GetDebugInfo(0x100 = JLINKARM_ROM_TABLE_ADDR_INDEX) -- Value=0xE00FF000  returns 0x00 (0000ms, 0334ms total)
T1B08 000:351 JLINK_GetDebugInfo(0x101 = JLINKARM_DEBUG_INFO_ETM_ADDR_INDEX) -- Value=0xE0041000  returns 0x00 (0000ms, 0334ms total)
T1B08 000:351 JLINK_ReadMemEx(0xE0041FD0, 0x0020 Bytes, ..., Flags = 0x02000004) -- CPU_ReadMem(32 bytes @ 0xE0041FD0) - Data: 04 00 00 00 00 00 00 00 00 00 00 00 00 00 00 00 ...  returns 0x20 (0001ms, 0335ms total)
T1B08 000:352 JLINK_GetDebugInfo(0x102 = JLINKARM_DEBUG_INFO_MTB_ADDR_INDEX) -- Value=0x00000000  returns 0x00 (0000ms, 0335ms total)
T1B08 000:352 JLINK_GetDebugInfo(0x103 = JLINKARM_DEBUG_INFO_TPIU_ADDR_INDEX) -- Value=0xE0040000  returns 0x00 (0000ms, 0335ms total)
T1B08 000:352 JLINK_GetDebugInfo(0x104 = JLINKARM_DEBUG_INFO_ITM_ADDR_INDEX) -- Value=0xE0000000  returns 0x00 (0000ms, 0335ms total)
T1B08 000:352 JLINK_GetDebugInfo(0x105 = JLINKARM_DEBUG_INFO_DWT_ADDR_INDEX) -- Value=0xE0001000  returns 0x00 (0000ms, 0335ms total)
T1B08 000:352 JLINK_GetDebugInfo(0x106 = JLINKARM_DEBUG_INFO_FPB_ADDR_INDEX) -- Value=0xE0002000  returns 0x00 (0000ms, 0335ms total)
T1B08 000:352 JLINK_GetDebugInfo(0x107 = JLINKARM_DEBUG_INFO_NVIC_ADDR_INDEX) -- Value=0xE000E000  returns 0x00 (0000ms, 0335ms total)
T1B08 000:352 JLINK_GetDebugInfo(0x10C = JLINKARM_DEBUG_INFO_DBG_ADDR_INDEX) -- Value=0xE000EDF0  returns 0x00 (0000ms, 0335ms total)
T1B08 000:352 JLINK_ReadMemU32(0xE000ED00, 0x0001 Items, ...) -- CPU_ReadMem(4 bytes @ 0xE000ED00) - Data: 31 C2 1F 41  returns 0x01 (0001ms, 0336ms total)
T1B08 000:353 JLINK_GetDebugInfo(0x10F = JLINKARM_DEBUG_INFO_HAS_CORTEX_M_SECURITY_EXT_INDEX) -- Value=0x00000000  returns 0x00 (0000ms, 0336ms total)
T1B08 000:353 JLINK_SetResetType(JLINKARM_CM3_RESET_TYPE_NORMAL)  returns JLINKARM_CM3_RESET_TYPE_NORMAL (0000ms, 0336ms total)
T1B08 000:353 JLINK_Reset() -- CPU is running -- CPU_WriteMem(4 bytes @ 0xE000EDF0) -- CPU is running -- CPU_WriteMem(4 bytes @ 0xE000EDFC) >0x35 TIF>Setting AIRCR.SYSRESETREQ -- CPU is running -- CPU_WriteMem(4 bytes @ 0xE000ED0C) >0x0D TIF> >0x28 TIF> -- CPU_ReadMem(4 bytes @ 0xE000ED0C) -- CPU_ReadMem(4 bytes @ 0xE000EDF0) -- CPU_ReadMem(4 bytes @ 0xE000EDF0) -- CPU_ReadMem(4 bytes @ 0xE000EDF0) -- CPU is running -- CPU_WriteMem(4 bytes @ 0xE000EDF0) -- CPU is running
 -- CPU_WriteMem(4 bytes @ 0xE000EDFC) -- CPU_ReadMem(4 bytes @ 0xE000EDF0) -- CPU_WriteMem(4 bytes @ 0xE0002000) -- CPU_ReadMem(4 bytes @ 0xE000EDFC) -- CPU_ReadMem(4 bytes @ 0xE0001000) (0077ms, 0413ms total)
T1B08 000:430 JLINK_Halt()  returns 0x00 (0000ms, 0413ms total)
T1B08 000:430 JLINK_ReadMemU32(0xE000EDF0, 0x0001 Items, ...) -- CPU_ReadMem(4 bytes @ 0xE000EDF0) - Data: 03 00 03 00  returns 0x01 (0001ms, 0414ms total)
T1B08 000:431 JLINK_WriteU32(0xE000EDF0, 0xA05F0003) -- CPU_WriteMem(4 bytes @ 0xE000EDF0)  returns 0x00 (0001ms, 0415ms total)
T1B08 000:432 JLINK_WriteU32(0xE000EDFC, 0x01000000) -- CPU_WriteMem(4 bytes @ 0xE000EDFC)  returns 0x00 (0001ms, 0416ms total)
T1B08 000:452 JLINK_GetHWStatus(...)  returns 0x00 (0000ms, 0416ms total)
T1B08 000:464 JLINK_GetNumBPUnits(Type = 0xFFFFFF00)  returns 0x06 (0000ms, 0416ms total)
T1B08 000:464 JLINK_GetNumBPUnits(Type = 0xF0)  returns 0x2000 (0000ms, 0416ms total)
T1B08 000:464 JLINK_GetNumWPUnits()  returns 0x04 (0000ms, 0416ms total)
T1B08 000:475 JLINK_GetSpeed()  returns 0xFA0 (0000ms, 0416ms total)
T1B08 000:483 JLINK_ReadMemU32(0xE000E004, 0x0001 Items, ...) -- CPU_ReadMem(4 bytes @ 0xE000E004) - Data: 01 00 00 00  returns 0x01 (0001ms, 0417ms total)
T1B08 000:484 JLINK_ReadMemU32(0xE000E004, 0x0001 Items, ...) -- CPU_ReadMem(4 bytes @ 0xE000E004) - Data: 01 00 00 00  returns 0x01 (0002ms, 0419ms total)
T1B08 000:486 JLINK_WriteMemEx(0xE0001000, 0x001C Bytes, ..., Flags = 0x02000004) - Data: 01 00 00 00 00 00 00 00 00 00 00 00 00 00 00 00 ... -- CPU_WriteMem(28 bytes @ 0xE0001000)  returns 0x1C (0002ms, 0421ms total)
T1B08 000:488 JLINK_Halt()  returns 0x00 (0000ms, 0421ms total)
T1B08 000:488 JLINK_IsHalted()  returns TRUE (0000ms, 0421ms total)
T1B08 000:491 JLINK_WriteMem(0x20000000, 0x0164 Bytes, ...) - Data: 00 BE 0A E0 0D 78 2D 06 68 40 08 24 40 00 00 D3 ... -- CPU_WriteMem(356 bytes @ 0x20000000)  returns 0x164 (0002ms, 0423ms total)
T1B08 000:493 JLINK_WriteReg(R0, 0x08000000)  returns 0x00 (0000ms, 0423ms total)
T1B08 000:493 JLINK_WriteReg(R1, 0x00B71B00)  returns 0x00 (0000ms, 0423ms total)
T1B08 000:493 JLINK_WriteReg(R2, 0x00000001)  returns 0x00 (0000ms, 0423ms total)
T1B08 000:493 JLINK_WriteReg(R3, 0x00000000)  returns 0x00 (0000ms, 0423ms total)
T1B08 000:493 JLINK_WriteReg(R4, 0x00000000)  returns 0x00 (0000ms, 0423ms total)
T1B08 000:493 JLINK_WriteReg(R5, 0x00000000)  returns 0x00 (0000ms, 0423ms total)
T1B08 000:493 JLINK_WriteReg(R6, 0x00000000)  returns 0x00 (0000ms, 0423ms total)
T1B08 000:493 JLINK_WriteReg(R7, 0x00000000)  returns 0x00 (0000ms, 0423ms total)
T1B08 000:493 JLINK_WriteReg(R8, 0x00000000)  returns 0x00 (0000ms, 0423ms total)
T1B08 000:493 JLINK_WriteReg(R9, 0x20000160)  returns 0x00 (0001ms, 0424ms total)
T1B08 000:494 JLINK_WriteReg(R10, 0x00000000)  returns 0x00 (0000ms, 0424ms total)
T1B08 000:494 JLINK_WriteReg(R11, 0x00000000)  returns 0x00 (0000ms, 0424ms total)
T1B08 000:494 JLINK_WriteReg(R12, 0x00000000)  returns 0x00 (0000ms, 0424ms total)
T1B08 000:494 JLINK_WriteReg(R13 (SP), 0x20000800)  returns 0x00 (0000ms, 0424ms total)
T1B08 000:494 JLINK_WriteReg(R14, 0x20000001)  returns 0x00 (0000ms, 0424ms total)
T1B08 000:494 JLINK_WriteReg(R15 (PC), 0x20000038)  returns 0x00 (0000ms, 0424ms total)
T1B08 000:494 JLINK_WriteReg(XPSR, 0x01000000)  returns 0x00 (0000ms, 0424ms total)
T1B08 000:494 JLINK_WriteReg(MSP, 0x20000800)  returns 0x00 (0000ms, 0424ms total)
T1B08 000:494 JLINK_WriteReg(PSP, 0x20000800)  returns 0x00 (0000ms, 0424ms total)
T1B08 000:494 JLINK_WriteReg(CFBP, 0x00000000)  returns 0x00 (0000ms, 0424ms total)
T1B08 000:494 JLINK_SetBPEx(Addr = 0x20000000, Type = 0xFFFFFFF2) -- CPU_ReadMem(2 bytes @ 0x20000000)  returns 0x00000001 (0000ms, 0424ms total)
T1B08 000:494 JLINK_Go() -- CPU_WriteMem(2 bytes @ 0x20000000) -- CPU_ReadMem(4 bytes @ 0xE0001000) -- CPU_WriteMem(4 bytes @ 0xE0002008) -- CPU_WriteMem(4 bytes @ 0xE000200C) -- CPU_WriteMem(4 bytes @ 0xE0002010) -- CPU_WriteMem(4 bytes @ 0xE0002014) -- CPU_WriteMem(4 bytes @ 0xE0002018) -- CPU_WriteMem(4 bytes @ 0xE000201C) -- CPU_WriteMem(4 bytes @ 0xE0001004) (0007ms, 0431ms total)
T1B08 000:501 JLINK_IsHalted() -- CPU_ReadMem(2 bytes @ 0x20000000)  returns TRUE (0004ms, 0435ms total)
T1B08 000:505 JLINK_ReadReg(R15 (PC))  returns 0x20000000 (0000ms, 0431ms total)
T1B08 000:505 JLINK_ClrBPEx(BPHandle = 0x00000001)  returns 0x00 (0000ms, 0431ms total)
T1B08 000:505 JLINK_ReadReg(R0)  returns 0x00000000 (0000ms, 0431ms total)
T1B08 000:506 JLINK_WriteReg(R0, 0x08000000)  returns 0x00 (0000ms, 0431ms total)
T1B08 000:506 JLINK_WriteReg(R1, 0x00B71B00)  returns 0x00 (0000ms, 0431ms total)
T1B08 000:506 JLINK_WriteReg(R2, 0x00000001)  returns 0x00 (0000ms, 0431ms total)
T1B08 000:506 JLINK_WriteReg(R3, 0x00000000)  returns 0x00 (0000ms, 0431ms total)
T1B08 000:506 JLINK_WriteReg(R4, 0x00000000)  returns 0x00 (0000ms, 0431ms total)
T1B08 000:506 JLINK_WriteReg(R5, 0x00000000)  returns 0x00 (0000ms, 0431ms total)
T1B08 000:506 JLINK_WriteReg(R6, 0x00000000)  returns 0x00 (0000ms, 0431ms total)
T1B08 000:506 JLINK_WriteReg(R7, 0x00000000)  returns 0x00 (0000ms, 0431ms total)
T1B08 000:506 JLINK_WriteReg(R8, 0x00000000)  returns 0x00 (0000ms, 0431ms total)
T1B08 000:506 JLINK_WriteReg(R9, 0x20000160)  returns 0x00 (0000ms, 0431ms total)
T1B08 000:506 JLINK_WriteReg(R10, 0x00000000)  returns 0x00 (0000ms, 0431ms total)
T1B08 000:506 JLINK_WriteReg(R11, 0x00000000)  returns 0x00 (0000ms, 0431ms total)
T1B08 000:506 JLINK_WriteReg(R12, 0x00000000)  returns 0x00 (0000ms, 0431ms total)
T1B08 000:506 JLINK_WriteReg(R13 (SP), 0x20000800)  returns 0x00 (0000ms, 0431ms total)
T1B08 000:506 JLINK_WriteReg(R14, 0x20000001)  returns 0x00 (0000ms, 0431ms total)
T1B08 000:506 JLINK_WriteReg(R15 (PC), 0x2000007C)  returns 0x00 (0000ms, 0431ms total)
T1B08 000:506 JLINK_WriteReg(XPSR, 0x01000000)  returns 0x00 (0000ms, 0431ms total)
T1B08 000:506 JLINK_WriteReg(MSP, 0x20000800)  returns 0x00 (0000ms, 0431ms total)
T1B08 000:506 JLINK_WriteReg(PSP, 0x20000800)  returns 0x00 (0000ms, 0431ms total)
T1B08 000:506 JLINK_WriteReg(CFBP, 0x00000000)  returns 0x00 (0000ms, 0431ms total)
T1B08 000:506 JLINK_SetBPEx(Addr = 0x20000000, Type = 0xFFFFFFF2)  returns 0x00000002 (0000ms, 0431ms total)
T1B08 000:506 JLINK_Go() -- CPU_ReadMem(4 bytes @ 0xE0001000) (0004ms, 0435ms total)
T1B08 000:510 JLINK_IsHalted()  returns FALSE (0001ms, 0436ms total)
T1B08 000:556 JLINK_IsHalted() -- CPU_ReadMem(2 bytes @ 0x20000000)  returns TRUE (0004ms, 0439ms total)
T1B08 000:560 JLINK_ReadReg(R15 (PC))  returns 0x20000000 (0000ms, 0435ms total)
T1B08 000:560 JLINK_ClrBPEx(BPHandle = 0x00000002)  returns 0x00 (0000ms, 0435ms total)
T1B08 000:560 JLINK_ReadReg(R0)  returns 0x00000000 (0000ms, 0435ms total)
T1B08 000:611 JLINK_WriteReg(R0, 0x00000001)  returns 0x00 (0001ms, 0436ms total)
T1B08 000:612 JLINK_WriteReg(R1, 0x00B71B00)  returns 0x00 (0000ms, 0436ms total)
T1B08 000:612 JLINK_WriteReg(R2, 0x00000001)  returns 0x00 (0000ms, 0436ms total)
T1B08 000:612 JLINK_WriteReg(R3, 0x00000000)  returns 0x00 (0000ms, 0436ms total)
T1B08 000:612 JLINK_WriteReg(R4, 0x00000000)  returns 0x00 (0000ms, 0436ms total)
T1B08 000:612 JLINK_WriteReg(R5, 0x00000000)  returns 0x00 (0000ms, 0436ms total)
T1B08 000:612 JLINK_WriteReg(R6, 0x00000000)  returns 0x00 (0000ms, 0436ms total)
T1B08 000:612 JLINK_WriteReg(R7, 0x00000000)  returns 0x00 (0000ms, 0436ms total)
T1B08 000:612 JLINK_WriteReg(R8, 0x00000000)  returns 0x00 (0000ms, 0436ms total)
T1B08 000:612 JLINK_WriteReg(R9, 0x20000160)  returns 0x00 (0000ms, 0436ms total)
T1B08 000:612 JLINK_WriteReg(R10, 0x00000000)  returns 0x00 (0000ms, 0436ms total)
T1B08 000:612 JLINK_WriteReg(R11, 0x00000000)  returns 0x00 (0000ms, 0436ms total)
T1B08 000:612 JLINK_WriteReg(R12, 0x00000000)  returns 0x00 (0000ms, 0436ms total)
T1B08 000:612 JLINK_WriteReg(R13 (SP), 0x20000800)  returns 0x00 (0000ms, 0436ms total)
T1B08 000:612 JLINK_WriteReg(R14, 0x20000001)  returns 0x00 (0000ms, 0436ms total)
T1B08 000:612 JLINK_WriteReg(R15 (PC), 0x2000006A)  returns 0x00 (0000ms, 0436ms total)
T1B08 000:612 JLINK_WriteReg(XPSR, 0x01000000)  returns 0x00 (0000ms, 0436ms total)
T1B08 000:612 JLINK_WriteReg(MSP, 0x20000800)  returns 0x00 (0000ms, 0436ms total)
T1B08 000:612 JLINK_WriteReg(PSP, 0x20000800)  returns 0x00 (0000ms, 0436ms total)
T1B08 000:612 JLINK_WriteReg(CFBP, 0x00000000)  returns 0x00 (0000ms, 0436ms total)
T1B08 000:612 JLINK_SetBPEx(Addr = 0x20000000, Type = 0xFFFFFFF2)  returns 0x00000003 (0000ms, 0436ms total)
T1B08 000:612 JLINK_Go() -- CPU_ReadMem(4 bytes @ 0xE0001000) (0003ms, 0439ms total)
T1B08 000:615 JLINK_IsHalted() -- CPU_ReadMem(2 bytes @ 0x20000000)  returns TRUE (0004ms, 0443ms total)
T1B08 000:619 JLINK_ReadReg(R15 (PC))  returns 0x20000000 (0000ms, 0439ms total)
T1B08 000:619 JLINK_ClrBPEx(BPHandle = 0x00000003)  returns 0x00 (0000ms, 0439ms total)
T1B08 000:619 JLINK_ReadReg(R0)  returns 0x00000000 (0000ms, 0439ms total)
T1B08 000:623 JLINK_WriteMem(0x20000000, 0x0164 Bytes, ...) - Data: 00 BE 0A E0 0D 78 2D 06 68 40 08 24 40 00 00 D3 ... -- CPU_WriteMem(356 bytes @ 0x20000000)  returns 0x164 (0002ms, 0441ms total)
T1B08 000:625 JLINK_WriteReg(R0, 0x08000000)  returns 0x00 (0000ms, 0441ms total)
T1B08 000:625 JLINK_WriteReg(R1, 0x00B71B00)  returns 0x00 (0000ms, 0441ms total)
T1B08 000:625 JLINK_WriteReg(R2, 0x00000002)  returns 0x00 (0000ms, 0441ms total)
T1B08 000:625 JLINK_WriteReg(R3, 0x00000000)  returns 0x00 (0000ms, 0441ms total)
T1B08 000:625 JLINK_WriteReg(R4, 0x00000000)  returns 0x00 (0000ms, 0441ms total)
T1B08 000:625 JLINK_WriteReg(R5, 0x00000000)  returns 0x00 (0000ms, 0441ms total)
T1B08 000:625 JLINK_WriteReg(R6, 0x00000000)  returns 0x00 (0000ms, 0441ms total)
T1B08 000:625 JLINK_WriteReg(R7, 0x00000000)  returns 0x00 (0000ms, 0441ms total)
T1B08 000:625 JLINK_WriteReg(R8, 0x00000000)  returns 0x00 (0000ms, 0441ms total)
T1B08 000:625 JLINK_WriteReg(R9, 0x20000160)  returns 0x00 (0000ms, 0441ms total)
T1B08 000:625 JLINK_WriteReg(R10, 0x00000000)  returns 0x00 (0000ms, 0441ms total)
T1B08 000:625 JLINK_WriteReg(R11, 0x00000000)  returns 0x00 (0000ms, 0441ms total)
T1B08 000:625 JLINK_WriteReg(R12, 0x00000000)  returns 0x00 (0000ms, 0441ms total)
T1B08 000:625 JLINK_WriteReg(R13 (SP), 0x20000800)  returns 0x00 (0000ms, 0441ms total)
T1B08 000:625 JLINK_WriteReg(R14, 0x20000001)  returns 0x00 (0000ms, 0441ms total)
T1B08 000:625 JLINK_WriteReg(R15 (PC), 0x20000038)  returns 0x00 (0000ms, 0441ms total)
T1B08 000:625 JLINK_WriteReg(XPSR, 0x01000000)  returns 0x00 (0000ms, 0441ms total)
T1B08 000:625 JLINK_WriteReg(MSP, 0x20000800)  returns 0x00 (0000ms, 0441ms total)
T1B08 000:625 JLINK_WriteReg(PSP, 0x20000800)  returns 0x00 (0000ms, 0441ms total)
T1B08 000:625 JLINK_WriteReg(CFBP, 0x00000000)  returns 0x00 (0000ms, 0441ms total)
T1B08 000:625 JLINK_SetBPEx(Addr = 0x20000000, Type = 0xFFFFFFF2) -- CPU_ReadMem(2 bytes @ 0x20000000)  returns 0x00000004 (0001ms, 0442ms total)
T1B08 000:626 JLINK_Go() -- CPU_WriteMem(2 bytes @ 0x20000000) -- CPU_ReadMem(4 bytes @ 0xE0001000) (0004ms, 0446ms total)
T1B08 000:630 JLINK_IsHalted() -- CPU_ReadMem(2 bytes @ 0x20000000)  returns TRUE (0004ms, 0450ms total)
T1B08 000:634 JLINK_ReadReg(R15 (PC))  returns 0x20000000 (0000ms, 0446ms total)
T1B08 000:634 JLINK_ClrBPEx(BPHandle = 0x00000004)  returns 0x00 (0000ms, 0446ms total)
T1B08 000:634 JLINK_ReadReg(R0)  returns 0x00000000 (0000ms, 0446ms total)
T1B08 000:635 JLINK_WriteMem(0x20000164, 0x029C Bytes, ...) - Data: 08 3D 00 20 B1 55 00 08 79 05 00 08 7B 05 00 08 ... -- CPU_WriteMem(668 bytes @ 0x20000164)  returns 0x29C (0003ms, 0449ms total)
T1B08 000:638 JLINK_WriteMem(0x20000400, 0x0164 Bytes, ...) - Data: 3A D1 00 BF 09 A9 68 46 04 F0 14 FA 80 46 B8 F1 ... -- CPU_WriteMem(356 bytes @ 0x20000400)  returns 0x164 (0002ms, 0451ms total)
T1B08 000:640 JLINK_WriteReg(R0, 0x08000000)  returns 0x00 (0000ms, 0451ms total)
T1B08 000:640 JLINK_WriteReg(R1, 0x00000400)  returns 0x00 (0000ms, 0451ms total)
T1B08 000:640 JLINK_WriteReg(R2, 0x20000164)  returns 0x00 (0000ms, 0451ms total)
T1B08 000:640 JLINK_WriteReg(R3, 0x00000000)  returns 0x00 (0000ms, 0451ms total)
T1B08 000:640 JLINK_WriteReg(R4, 0x00000000)  returns 0x00 (0000ms, 0451ms total)
T1B08 000:640 JLINK_WriteReg(R5, 0x00000000)  returns 0x00 (0000ms, 0451ms total)
T1B08 000:640 JLINK_WriteReg(R6, 0x00000000)  returns 0x00 (0000ms, 0451ms total)
T1B08 000:640 JLINK_WriteReg(R7, 0x00000000)  returns 0x00 (0000ms, 0451ms total)
T1B08 000:640 JLINK_WriteReg(R8, 0x00000000)  returns 0x00 (0000ms, 0451ms total)
T1B08 000:640 JLINK_WriteReg(R9, 0x20000160)  returns 0x00 (0000ms, 0451ms total)
T1B08 000:640 JLINK_WriteReg(R10, 0x00000000)  returns 0x00 (0000ms, 0451ms total)
T1B08 000:640 JLINK_WriteReg(R11, 0x00000000)  returns 0x00 (0000ms, 0451ms total)
T1B08 000:640 JLINK_WriteReg(R12, 0x00000000)  returns 0x00 (0000ms, 0451ms total)
T1B08 000:640 JLINK_WriteReg(R13 (SP), 0x20000800)  returns 0x00 (0000ms, 0451ms total)
T1B08 000:640 JLINK_WriteReg(R14, 0x20000001)  returns 0x00 (0000ms, 0451ms total)
T1B08 000:640 JLINK_WriteReg(R15 (PC), 0x200000F4)  returns 0x00 (0000ms, 0451ms total)
T1B08 000:640 JLINK_WriteReg(XPSR, 0x01000000)  returns 0x00 (0000ms, 0451ms total)
T1B08 000:640 JLINK_WriteReg(MSP, 0x20000800)  returns 0x00 (0000ms, 0451ms total)
T1B08 000:640 JLINK_WriteReg(PSP, 0x20000800)  returns 0x00 (0000ms, 0451ms total)
T1B08 000:640 JLINK_WriteReg(CFBP, 0x00000000)  returns 0x00 (0000ms, 0451ms total)
T1B08 000:640 JLINK_SetBPEx(Addr = 0x20000000, Type = 0xFFFFFFF2)  returns 0x00000005 (0000ms, 0451ms total)
T1B08 000:640 JLINK_Go() -- CPU_ReadMem(4 bytes @ 0xE0001000) (0003ms, 0454ms total)
T1B08 000:643 JLINK_IsHalted()  returns FALSE (0001ms, 0455ms total)
T1B08 000:654 JLINK_IsHalted()  returns FALSE (0001ms, 0455ms total)
T1B08 000:656 JLINK_IsHalted()  returns FALSE (0000ms, 0454ms total)
T1B08 000:657 JLINK_IsHalted()  returns FALSE (0000ms, 0454ms total)
T1B08 000:658 JLINK_IsHalted()  returns FALSE (0000ms, 0454ms total)
T1B08 000:659 JLINK_IsHalted()  returns FALSE (0000ms, 0454ms total)
T1B08 000:660 JLINK_IsHalted()  returns FALSE (0001ms, 0455ms total)
T1B08 000:662 JLINK_IsHalted()  returns FALSE (0001ms, 0455ms total)
T1B08 000:664 JLINK_IsHalted()  returns FALSE (0001ms, 0455ms total)
T1B08 000:666 JLINK_IsHalted()  returns FALSE (0001ms, 0455ms total)
T1B08 000:668 JLINK_IsHalted()  returns FALSE (0000ms, 0454ms total)
T1B08 000:669 JLINK_IsHalted()  returns FALSE (0000ms, 0454ms total)
T1B08 000:670 JLINK_IsHalted()  returns FALSE (0001ms, 0455ms total)
T1B08 000:672 JLINK_IsHalted()  returns FALSE (0000ms, 0454ms total)
T1B08 000:673 JLINK_IsHalted() -- CPU_ReadMem(2 bytes @ 0x20000000)  returns TRUE (0003ms, 0457ms total)
T1B08 000:676 JLINK_ReadReg(R15 (PC))  returns 0x20000000 (0000ms, 0454ms total)
T1B08 000:676 JLINK_ClrBPEx(BPHandle = 0x00000005)  returns 0x00 (0000ms, 0454ms total)
T1B08 000:676 JLINK_ReadReg(R0)  returns 0x00000000 (0000ms, 0454ms total)
T1B08 000:678 JLINK_WriteMem(0x20000164, 0x029C Bytes, ...) - Data: 08 39 02 A8 03 F0 92 FC 06 46 AC 42 01 D8 64 1C ... -- CPU_WriteMem(668 bytes @ 0x20000164)  returns 0x29C (0002ms, 0456ms total)
T1B08 000:681 JLINK_WriteMem(0x20000400, 0x0164 Bytes, ...) - Data: 05 F0 EE F8 03 E0 01 21 00 20 05 F0 E9 F8 10 BD ... -- CPU_WriteMem(356 bytes @ 0x20000400)  returns 0x164 (0001ms, 0457ms total)
T1B08 000:682 JLINK_WriteReg(R0, 0x08000400)  returns 0x00 (0000ms, 0457ms total)
T1B08 000:682 JLINK_WriteReg(R1, 0x00000400)  returns 0x00 (0001ms, 0458ms total)
T1B08 000:683 JLINK_WriteReg(R2, 0x20000164)  returns 0x00 (0000ms, 0458ms total)
T1B08 000:683 JLINK_WriteReg(R3, 0x00000000)  returns 0x00 (0000ms, 0458ms total)
T1B08 000:683 JLINK_WriteReg(R4, 0x00000000)  returns 0x00 (0000ms, 0458ms total)
T1B08 000:683 JLINK_WriteReg(R5, 0x00000000)  returns 0x00 (0000ms, 0458ms total)
T1B08 000:683 JLINK_WriteReg(R6, 0x00000000)  returns 0x00 (0000ms, 0458ms total)
T1B08 000:683 JLINK_WriteReg(R7, 0x00000000)  returns 0x00 (0000ms, 0458ms total)
T1B08 000:683 JLINK_WriteReg(R8, 0x00000000)  returns 0x00 (0000ms, 0458ms total)
T1B08 000:683 JLINK_WriteReg(R9, 0x20000160)  returns 0x00 (0000ms, 0458ms total)
T1B08 000:683 JLINK_WriteReg(R10, 0x00000000)  returns 0x00 (0000ms, 0458ms total)
T1B08 000:683 JLINK_WriteReg(R11, 0x00000000)  returns 0x00 (0000ms, 0458ms total)
T1B08 000:683 JLINK_WriteReg(R12, 0x00000000)  returns 0x00 (0000ms, 0458ms total)
T1B08 000:683 JLINK_WriteReg(R13 (SP), 0x20000800)  returns 0x00 (0000ms, 0458ms total)
T1B08 000:683 JLINK_WriteReg(R14, 0x20000001)  returns 0x00 (0000ms, 0458ms total)
T1B08 000:683 JLINK_WriteReg(R15 (PC), 0x200000F4)  returns 0x00 (0000ms, 0458ms total)
T1B08 000:683 JLINK_WriteReg(XPSR, 0x01000000)  returns 0x00 (0000ms, 0458ms total)
T1B08 000:683 JLINK_WriteReg(MSP, 0x20000800)  returns 0x00 (0000ms, 0458ms total)
T1B08 000:683 JLINK_WriteReg(PSP, 0x20000800)  returns 0x00 (0000ms, 0458ms total)
T1B08 000:683 JLINK_WriteReg(CFBP, 0x00000000)  returns 0x00 (0000ms, 0458ms total)
T1B08 000:683 JLINK_SetBPEx(Addr = 0x20000000, Type = 0xFFFFFFF2)  returns 0x00000006 (0000ms, 0458ms total)
T1B08 000:683 JLINK_Go() -- CPU_ReadMem(4 bytes @ 0xE0001000) (0002ms, 0460ms total)
T1B08 000:685 JLINK_IsHalted()  returns FALSE (0001ms, 0461ms total)
T1B08 000:687 JLINK_IsHalted()  returns FALSE (0000ms, 0460ms total)
T1B08 000:688 JLINK_IsHalted()  returns FALSE (0000ms, 0460ms total)
T1B08 000:689 JLINK_IsHalted()  returns FALSE (0000ms, 0460ms total)
T1B08 000:690 JLINK_IsHalted()  returns FALSE (0000ms, 0460ms total)
T1B08 000:691 JLINK_IsHalted()  returns FALSE (0000ms, 0460ms total)
T1B08 000:692 JLINK_IsHalted()  returns FALSE (0000ms, 0460ms total)
T1B08 000:693 JLINK_IsHalted()  returns FALSE (0000ms, 0460ms total)
T1B08 000:694 JLINK_IsHalted()  returns FALSE (0000ms, 0460ms total)
T1B08 000:695 JLINK_IsHalted()  returns FALSE (0000ms, 0460ms total)
T1B08 000:697 JLINK_IsHalted()  returns FALSE (0001ms, 0461ms total)
T1B08 000:699 JLINK_IsHalted()  returns FALSE (0001ms, 0461ms total)
T1B08 000:701 JLINK_IsHalted()  returns FALSE (0001ms, 0461ms total)
T1B08 000:707 JLINK_IsHalted()  returns FALSE (0001ms, 0461ms total)
T1B08 000:709 JLINK_IsHalted()  returns FALSE (0001ms, 0461ms total)
T1B08 000:711 JLINK_IsHalted()  returns FALSE (0001ms, 0461ms total)
T1B08 000:713 JLINK_IsHalted()  returns FALSE (0000ms, 0460ms total)
T1B08 000:714 JLINK_IsHalted()  returns FALSE (0000ms, 0460ms total)
T1B08 000:715 JLINK_IsHalted()  returns FALSE (0000ms, 0460ms total)
T1B08 000:716 JLINK_IsHalted() -- CPU_ReadMem(2 bytes @ 0x20000000)  returns TRUE (0003ms, 0463ms total)
T1B08 000:719 JLINK_ReadReg(R15 (PC))  returns 0x20000000 (0000ms, 0460ms total)
T1B08 000:719 JLINK_ClrBPEx(BPHandle = 0x00000006)  returns 0x00 (0000ms, 0460ms total)
T1B08 000:719 JLINK_ReadReg(R0)  returns 0x00000000 (0000ms, 0460ms total)
T1B08 000:720 JLINK_WriteMem(0x20000164, 0x029C Bytes, ...) - Data: 04 F0 ED FF C6 B2 06 F0 1F 00 05 28 01 D0 00 20 ... -- CPU_WriteMem(668 bytes @ 0x20000164)  returns 0x29C (0003ms, 0463ms total)
T1B08 000:723 JLINK_WriteMem(0x20000400, 0x0164 Bytes, ...) - Data: 48 00 00 20 F7 48 00 78 00 F0 04 00 08 B1 02 20 ... -- CPU_WriteMem(356 bytes @ 0x20000400)  returns 0x164 (0002ms, 0465ms total)
T1B08 000:725 JLINK_WriteReg(R0, 0x08000800)  returns 0x00 (0000ms, 0465ms total)
T1B08 000:725 JLINK_WriteReg(R1, 0x00000400)  returns 0x00 (0000ms, 0465ms total)
T1B08 000:725 JLINK_WriteReg(R2, 0x20000164)  returns 0x00 (0000ms, 0465ms total)
T1B08 000:725 JLINK_WriteReg(R3, 0x00000000)  returns 0x00 (0000ms, 0465ms total)
T1B08 000:725 JLINK_WriteReg(R4, 0x00000000)  returns 0x00 (0000ms, 0465ms total)
T1B08 000:725 JLINK_WriteReg(R5, 0x00000000)  returns 0x00 (0000ms, 0465ms total)
T1B08 000:725 JLINK_WriteReg(R6, 0x00000000)  returns 0x00 (0000ms, 0465ms total)
T1B08 000:726 JLINK_WriteReg(R7, 0x00000000)  returns 0x00 (0000ms, 0466ms total)
T1B08 000:726 JLINK_WriteReg(R8, 0x00000000)  returns 0x00 (0000ms, 0466ms total)
T1B08 000:726 JLINK_WriteReg(R9, 0x20000160)  returns 0x00 (0000ms, 0466ms total)
T1B08 000:726 JLINK_WriteReg(R10, 0x00000000)  returns 0x00 (0000ms, 0466ms total)
T1B08 000:726 JLINK_WriteReg(R11, 0x00000000)  returns 0x00 (0000ms, 0466ms total)
T1B08 000:726 JLINK_WriteReg(R12, 0x00000000)  returns 0x00 (0000ms, 0466ms total)
T1B08 000:726 JLINK_WriteReg(R13 (SP), 0x20000800)  returns 0x00 (0000ms, 0466ms total)
T1B08 000:726 JLINK_WriteReg(R14, 0x20000001)  returns 0x00 (0000ms, 0466ms total)
T1B08 000:726 JLINK_WriteReg(R15 (PC), 0x200000F4)  returns 0x00 (0000ms, 0466ms total)
T1B08 000:726 JLINK_WriteReg(XPSR, 0x01000000)  returns 0x00 (0000ms, 0466ms total)
T1B08 000:726 JLINK_WriteReg(MSP, 0x20000800)  returns 0x00 (0000ms, 0466ms total)
T1B08 000:726 JLINK_WriteReg(PSP, 0x20000800)  returns 0x00 (0000ms, 0466ms total)
T1B08 000:726 JLINK_WriteReg(CFBP, 0x00000000)  returns 0x00 (0000ms, 0466ms total)
T1B08 000:726 JLINK_SetBPEx(Addr = 0x20000000, Type = 0xFFFFFFF2)  returns 0x00000007 (0000ms, 0466ms total)
T1B08 000:726 JLINK_Go() -- CPU_ReadMem(4 bytes @ 0xE0001000) (0003ms, 0469ms total)
T1B08 000:729 JLINK_IsHalted()  returns FALSE (0001ms, 0470ms total)
T1B08 000:731 JLINK_IsHalted()  returns FALSE (0000ms, 0469ms total)
T1B08 000:732 JLINK_IsHalted()  returns FALSE (0000ms, 0469ms total)
T1B08 000:733 JLINK_IsHalted()  returns FALSE (0000ms, 0469ms total)
T1B08 000:734 JLINK_IsHalted()  returns FALSE (0000ms, 0469ms total)
T1B08 000:735 JLINK_IsHalted()  returns FALSE (0000ms, 0469ms total)
T1B08 000:736 JLINK_IsHalted()  returns FALSE (0000ms, 0469ms total)
T1B08 000:737 JLINK_IsHalted()  returns FALSE (0000ms, 0469ms total)
T1B08 000:738 JLINK_IsHalted()  returns FALSE (0000ms, 0469ms total)
T1B08 000:739 JLINK_IsHalted()  returns FALSE (0000ms, 0469ms total)
T1B08 000:740 JLINK_IsHalted()  returns FALSE (0000ms, 0469ms total)
T1B08 000:741 JLINK_IsHalted()  returns FALSE (0000ms, 0469ms total)
T1B08 000:742 JLINK_IsHalted()  returns FALSE (0000ms, 0469ms total)
T1B08 000:743 JLINK_IsHalted()  returns FALSE (0000ms, 0469ms total)
T1B08 000:744 JLINK_IsHalted()  returns FALSE (0000ms, 0469ms total)
T1B08 000:745 JLINK_IsHalted()  returns FALSE (0000ms, 0469ms total)
T1B08 000:746 JLINK_IsHalted()  returns FALSE (0000ms, 0469ms total)
T1B08 000:747 JLINK_IsHalted()  returns FALSE (0000ms, 0469ms total)
T1B08 000:748 JLINK_IsHalted()  returns FALSE (0000ms, 0469ms total)
T1B08 000:749 JLINK_IsHalted()  returns FALSE (0000ms, 0469ms total)
T1B08 000:750 JLINK_IsHalted()  returns FALSE (0000ms, 0469ms total)
T1B08 000:751 JLINK_IsHalted()  returns FALSE (0000ms, 0469ms total)
T1B08 000:752 JLINK_IsHalted()  returns FALSE (0000ms, 0469ms total)
T1B08 000:753 JLINK_IsHalted()  returns FALSE (0000ms, 0469ms total)
T1B08 000:754 JLINK_IsHalted()  returns FALSE (0000ms, 0469ms total)
T1B08 000:758 JLINK_IsHalted()  returns FALSE (0001ms, 0470ms total)
T1B08 000:760 JLINK_IsHalted() -- CPU_ReadMem(2 bytes @ 0x20000000)  returns TRUE (0004ms, 0473ms total)
T1B08 000:764 JLINK_ReadReg(R15 (PC))  returns 0x20000000 (0000ms, 0469ms total)
T1B08 000:764 JLINK_ClrBPEx(BPHandle = 0x00000007)  returns 0x00 (0000ms, 0469ms total)
T1B08 000:764 JLINK_ReadReg(R0)  returns 0x00000000 (0000ms, 0469ms total)
T1B08 000:765 JLINK_WriteMem(0x20000164, 0x029C Bytes, ...) - Data: 04 00 00 B3 00 21 8D 20 FF F7 05 FE 00 28 4D D1 ... -- CPU_WriteMem(668 bytes @ 0x20000164)  returns 0x29C (0002ms, 0471ms total)
T1B08 000:767 JLINK_WriteMem(0x20000400, 0x0164 Bytes, ...) - Data: 01 00 08 B1 03 20 70 BD 17 48 00 78 00 F0 08 00 ... -- CPU_WriteMem(356 bytes @ 0x20000400)  returns 0x164 (0002ms, 0473ms total)
T1B08 000:770 JLINK_WriteReg(R0, 0x08000C00)  returns 0x00 (0000ms, 0473ms total)
T1B08 000:770 JLINK_WriteReg(R1, 0x00000400)  returns 0x00 (0000ms, 0473ms total)
T1B08 000:770 JLINK_WriteReg(R2, 0x20000164)  returns 0x00 (0000ms, 0473ms total)
T1B08 000:770 JLINK_WriteReg(R3, 0x00000000)  returns 0x00 (0000ms, 0473ms total)
T1B08 000:770 JLINK_WriteReg(R4, 0x00000000)  returns 0x00 (0000ms, 0473ms total)
T1B08 000:770 JLINK_WriteReg(R5, 0x00000000)  returns 0x00 (0000ms, 0473ms total)
T1B08 000:770 JLINK_WriteReg(R6, 0x00000000)  returns 0x00 (0000ms, 0473ms total)
T1B08 000:770 JLINK_WriteReg(R7, 0x00000000)  returns 0x00 (0000ms, 0473ms total)
T1B08 000:770 JLINK_WriteReg(R8, 0x00000000)  returns 0x00 (0000ms, 0473ms total)
T1B08 000:770 JLINK_WriteReg(R9, 0x20000160)  returns 0x00 (0000ms, 0473ms total)
T1B08 000:770 JLINK_WriteReg(R10, 0x00000000)  returns 0x00 (0000ms, 0473ms total)
T1B08 000:770 JLINK_WriteReg(R11, 0x00000000)  returns 0x00 (0000ms, 0473ms total)
T1B08 000:770 JLINK_WriteReg(R12, 0x00000000)  returns 0x00 (0000ms, 0473ms total)
T1B08 000:770 JLINK_WriteReg(R13 (SP), 0x20000800)  returns 0x00 (0000ms, 0473ms total)
T1B08 000:770 JLINK_WriteReg(R14, 0x20000001)  returns 0x00 (0000ms, 0473ms total)
T1B08 000:770 JLINK_WriteReg(R15 (PC), 0x200000F4)  returns 0x00 (0000ms, 0473ms total)
T1B08 000:770 JLINK_WriteReg(XPSR, 0x01000000)  returns 0x00 (0000ms, 0473ms total)
T1B08 000:770 JLINK_WriteReg(MSP, 0x20000800)  returns 0x00 (0000ms, 0473ms total)
T1B08 000:770 JLINK_WriteReg(PSP, 0x20000800)  returns 0x00 (0000ms, 0473ms total)
T1B08 000:770 JLINK_WriteReg(CFBP, 0x00000000)  returns 0x00 (0000ms, 0473ms total)
T1B08 000:770 JLINK_SetBPEx(Addr = 0x20000000, Type = 0xFFFFFFF2)  returns 0x00000008 (0000ms, 0473ms total)
T1B08 000:770 JLINK_Go() -- CPU_ReadMem(4 bytes @ 0xE0001000) (0002ms, 0475ms total)
T1B08 000:772 JLINK_IsHalted()  returns FALSE (0001ms, 0476ms total)
T1B08 000:774 JLINK_IsHalted()  returns FALSE (0000ms, 0475ms total)
T1B08 000:775 JLINK_IsHalted()  returns FALSE (0000ms, 0475ms total)
T1B08 000:776 JLINK_IsHalted()  returns FALSE (0000ms, 0475ms total)
T1B08 000:777 JLINK_IsHalted()  returns FALSE (0000ms, 0475ms total)
T1B08 000:778 JLINK_IsHalted()  returns FALSE (0000ms, 0475ms total)
T1B08 000:779 JLINK_IsHalted()  returns FALSE (0000ms, 0475ms total)
T1B08 000:780 JLINK_IsHalted()  returns FALSE (0000ms, 0475ms total)
T1B08 000:781 JLINK_IsHalted()  returns FALSE (0000ms, 0475ms total)
T1B08 000:783 JLINK_IsHalted()  returns FALSE (0001ms, 0476ms total)
T1B08 000:785 JLINK_IsHalted()  returns FALSE (0001ms, 0476ms total)
T1B08 000:787 JLINK_IsHalted()  returns FALSE (0001ms, 0476ms total)
T1B08 000:789 JLINK_IsHalted()  returns FALSE (0001ms, 0476ms total)
T1B08 000:791 JLINK_IsHalted()  returns FALSE (0001ms, 0476ms total)
T1B08 000:793 JLINK_IsHalted()  returns FALSE (0001ms, 0476ms total)
T1B08 000:795 JLINK_IsHalted()  returns FALSE (0001ms, 0476ms total)
T1B08 000:797 JLINK_IsHalted()  returns FALSE (0001ms, 0476ms total)
T1B08 000:799 JLINK_IsHalted()  returns FALSE (0000ms, 0475ms total)
T1B08 000:800 JLINK_IsHalted()  returns FALSE (0001ms, 0476ms total)
T1B08 000:802 JLINK_IsHalted()  returns FALSE (0000ms, 0475ms total)
T1B08 000:803 JLINK_IsHalted() -- CPU_ReadMem(2 bytes @ 0x20000000)  returns TRUE (0003ms, 0478ms total)
T1B08 000:806 JLINK_ReadReg(R15 (PC))  returns 0x20000000 (0000ms, 0475ms total)
T1B08 000:806 JLINK_ClrBPEx(BPHandle = 0x00000008)  returns 0x00 (0000ms, 0475ms total)
T1B08 000:806 JLINK_ReadReg(R0)  returns 0x00000000 (0000ms, 0475ms total)
T1B08 000:807 JLINK_WriteMem(0x20000164, 0x029C Bytes, ...) - Data: 70 B5 04 46 0D 46 00 BF C6 49 51 F8 24 00 40 21 ... -- CPU_WriteMem(668 bytes @ 0x20000164)  returns 0x29C (0003ms, 0478ms total)
T1B08 000:810 JLINK_WriteMem(0x20000400, 0x0164 Bytes, ...) - Data: 04 00 30 28 00 D0 03 E0 60 1C 44 B2 09 2C F6 DB ... -- CPU_WriteMem(356 bytes @ 0x20000400)  returns 0x164 (0002ms, 0480ms total)
T1B08 000:812 JLINK_WriteReg(R0, 0x08001000)  returns 0x00 (0000ms, 0480ms total)
T1B08 000:812 JLINK_WriteReg(R1, 0x00000400)  returns 0x00 (0000ms, 0480ms total)
T1B08 000:812 JLINK_WriteReg(R2, 0x20000164)  returns 0x00 (0000ms, 0480ms total)
T1B08 000:812 JLINK_WriteReg(R3, 0x00000000)  returns 0x00 (0000ms, 0480ms total)
T1B08 000:812 JLINK_WriteReg(R4, 0x00000000)  returns 0x00 (0000ms, 0480ms total)
T1B08 000:812 JLINK_WriteReg(R5, 0x00000000)  returns 0x00 (0000ms, 0480ms total)
T1B08 000:812 JLINK_WriteReg(R6, 0x00000000)  returns 0x00 (0000ms, 0480ms total)
T1B08 000:812 JLINK_WriteReg(R7, 0x00000000)  returns 0x00 (0000ms, 0480ms total)
T1B08 000:812 JLINK_WriteReg(R8, 0x00000000)  returns 0x00 (0000ms, 0480ms total)
T1B08 000:812 JLINK_WriteReg(R9, 0x20000160)  returns 0x00 (0000ms, 0480ms total)
T1B08 000:812 JLINK_WriteReg(R10, 0x00000000)  returns 0x00 (0000ms, 0480ms total)
T1B08 000:812 JLINK_WriteReg(R11, 0x00000000)  returns 0x00 (0000ms, 0480ms total)
T1B08 000:812 JLINK_WriteReg(R12, 0x00000000)  returns 0x00 (0000ms, 0480ms total)
T1B08 000:812 JLINK_WriteReg(R13 (SP), 0x20000800)  returns 0x00 (0000ms, 0480ms total)
T1B08 000:812 JLINK_WriteReg(R14, 0x20000001)  returns 0x00 (0000ms, 0480ms total)
T1B08 000:812 JLINK_WriteReg(R15 (PC), 0x200000F4)  returns 0x00 (0000ms, 0480ms total)
T1B08 000:812 JLINK_WriteReg(XPSR, 0x01000000)  returns 0x00 (0000ms, 0480ms total)
T1B08 000:812 JLINK_WriteReg(MSP, 0x20000800)  returns 0x00 (0000ms, 0480ms total)
T1B08 000:812 JLINK_WriteReg(PSP, 0x20000800)  returns 0x00 (0000ms, 0480ms total)
T1B08 000:812 JLINK_WriteReg(CFBP, 0x00000000)  returns 0x00 (0000ms, 0480ms total)
T1B08 000:812 JLINK_SetBPEx(Addr = 0x20000000, Type = 0xFFFFFFF2)  returns 0x00000009 (0000ms, 0480ms total)
T1B08 000:812 JLINK_Go() -- CPU_ReadMem(4 bytes @ 0xE0001000) (0003ms, 0483ms total)
T1B08 000:815 JLINK_IsHalted()  returns FALSE (0001ms, 0484ms total)
T1B08 000:819 JLINK_IsHalted()  returns FALSE (0001ms, 0484ms total)
T1B08 000:821 JLINK_IsHalted()  returns FALSE (0001ms, 0484ms total)
T1B08 000:823 JLINK_IsHalted()  returns FALSE (0000ms, 0483ms total)
T1B08 000:824 JLINK_IsHalted()  returns FALSE (0001ms, 0484ms total)
T1B08 000:826 JLINK_IsHalted()  returns FALSE (0001ms, 0484ms total)
T1B08 000:828 JLINK_IsHalted()  returns FALSE (0001ms, 0484ms total)
T1B08 000:830 JLINK_IsHalted()  returns FALSE (0000ms, 0483ms total)
T1B08 000:831 JLINK_IsHalted()  returns FALSE (0001ms, 0484ms total)
T1B08 000:833 JLINK_IsHalted()  returns FALSE (0001ms, 0485ms total)
T1B08 000:835 JLINK_IsHalted()  returns FALSE (0000ms, 0484ms total)
T1B08 000:836 JLINK_IsHalted()  returns FALSE (0001ms, 0485ms total)
T1B08 000:838 JLINK_IsHalted()  returns FALSE (0000ms, 0484ms total)
T1B08 000:839 JLINK_IsHalted()  returns FALSE (0001ms, 0485ms total)
T1B08 000:841 JLINK_IsHalted()  returns FALSE (0001ms, 0485ms total)
T1B08 000:843 JLINK_IsHalted()  returns FALSE (0000ms, 0484ms total)
T1B08 000:847 JLINK_IsHalted() -- CPU_ReadMem(2 bytes @ 0x20000000)  returns TRUE (0004ms, 0488ms total)
T1B08 000:851 JLINK_ReadReg(R15 (PC))  returns 0x20000000 (0000ms, 0484ms total)
T1B08 000:851 JLINK_ClrBPEx(BPHandle = 0x00000009)  returns 0x00 (0000ms, 0484ms total)
T1B08 000:851 JLINK_ReadReg(R0)  returns 0x00000000 (0000ms, 0484ms total)
T1B08 000:852 JLINK_WriteMem(0x20000164, 0x029C Bytes, ...) - Data: 1A 61 00 BF 4F F0 E0 22 10 69 00 F0 01 02 1A B1 ... -- CPU_WriteMem(668 bytes @ 0x20000164)  returns 0x29C (0003ms, 0487ms total)
T1B08 000:855 JLINK_WriteMem(0x20000400, 0x0164 Bytes, ...) - Data: FF 73 1A 40 02 82 70 47 C1 F3 08 02 82 80 70 47 ... -- CPU_WriteMem(356 bytes @ 0x20000400)  returns 0x164 (0001ms, 0488ms total)
T1B08 000:857 JLINK_WriteReg(R0, 0x08001400)  returns 0x00 (0000ms, 0488ms total)
T1B08 000:857 JLINK_WriteReg(R1, 0x00000400)  returns 0x00 (0000ms, 0488ms total)
T1B08 000:857 JLINK_WriteReg(R2, 0x20000164)  returns 0x00 (0000ms, 0488ms total)
T1B08 000:857 JLINK_WriteReg(R3, 0x00000000)  returns 0x00 (0000ms, 0488ms total)
T1B08 000:857 JLINK_WriteReg(R4, 0x00000000)  returns 0x00 (0000ms, 0488ms total)
T1B08 000:857 JLINK_WriteReg(R5, 0x00000000)  returns 0x00 (0000ms, 0488ms total)
T1B08 000:857 JLINK_WriteReg(R6, 0x00000000)  returns 0x00 (0000ms, 0488ms total)
T1B08 000:857 JLINK_WriteReg(R7, 0x00000000)  returns 0x00 (0000ms, 0488ms total)
T1B08 000:857 JLINK_WriteReg(R8, 0x00000000)  returns 0x00 (0000ms, 0488ms total)
T1B08 000:857 JLINK_WriteReg(R9, 0x20000160)  returns 0x00 (0000ms, 0488ms total)
T1B08 000:857 JLINK_WriteReg(R10, 0x00000000)  returns 0x00 (0000ms, 0488ms total)
T1B08 000:857 JLINK_WriteReg(R11, 0x00000000)  returns 0x00 (0000ms, 0488ms total)
T1B08 000:857 JLINK_WriteReg(R12, 0x00000000)  returns 0x00 (0000ms, 0488ms total)
T1B08 000:857 JLINK_WriteReg(R13 (SP), 0x20000800)  returns 0x00 (0000ms, 0488ms total)
T1B08 000:857 JLINK_WriteReg(R14, 0x20000001)  returns 0x00 (0000ms, 0488ms total)
T1B08 000:857 JLINK_WriteReg(R15 (PC), 0x200000F4)  returns 0x00 (0000ms, 0488ms total)
T1B08 000:857 JLINK_WriteReg(XPSR, 0x01000000)  returns 0x00 (0000ms, 0488ms total)
T1B08 000:857 JLINK_WriteReg(MSP, 0x20000800)  returns 0x00 (0000ms, 0488ms total)
T1B08 000:857 JLINK_WriteReg(PSP, 0x20000800)  returns 0x00 (0000ms, 0488ms total)
T1B08 000:857 JLINK_WriteReg(CFBP, 0x00000000)  returns 0x00 (0000ms, 0488ms total)
T1B08 000:857 JLINK_SetBPEx(Addr = 0x20000000, Type = 0xFFFFFFF2)  returns 0x0000000A (0000ms, 0488ms total)
T1B08 000:857 JLINK_Go() -- CPU_ReadMem(4 bytes @ 0xE0001000) (0002ms, 0490ms total)
T1B08 000:859 JLINK_IsHalted()  returns FALSE (0002ms, 0492ms total)
T1B08 000:862 JLINK_IsHalted()  returns FALSE (0001ms, 0491ms total)
T1B08 000:864 JLINK_IsHalted()  returns FALSE (0001ms, 0491ms total)
T1B08 000:866 JLINK_IsHalted()  returns FALSE (0001ms, 0491ms total)
T1B08 000:868 JLINK_IsHalted()  returns FALSE (0001ms, 0491ms total)
T1B08 000:870 JLINK_IsHalted()  returns FALSE (0001ms, 0491ms total)
T1B08 000:872 JLINK_IsHalted()  returns FALSE (0000ms, 0490ms total)
T1B08 000:873 JLINK_IsHalted()  returns FALSE (0001ms, 0491ms total)
T1B08 000:875 JLINK_IsHalted()  returns FALSE (0001ms, 0491ms total)
T1B08 000:877 JLINK_IsHalted()  returns FALSE (0000ms, 0490ms total)
T1B08 000:878 JLINK_IsHalted()  returns FALSE (0001ms, 0491ms total)
T1B08 000:880 JLINK_IsHalted()  returns FALSE (0001ms, 0491ms total)
T1B08 000:882 JLINK_IsHalted()  returns FALSE (0001ms, 0491ms total)
T1B08 000:884 JLINK_IsHalted()  returns FALSE (0000ms, 0490ms total)
T1B08 000:885 JLINK_IsHalted()  returns FALSE (0000ms, 0490ms total)
T1B08 000:886 JLINK_IsHalted()  returns FALSE (0000ms, 0490ms total)
T1B08 000:887 JLINK_IsHalted()  returns FALSE (0000ms, 0490ms total)
T1B08 000:888 JLINK_IsHalted()  returns FALSE (0000ms, 0490ms total)
T1B08 000:889 JLINK_IsHalted()  returns FALSE (0000ms, 0490ms total)
T1B08 000:890 JLINK_IsHalted() -- CPU_ReadMem(2 bytes @ 0x20000000)  returns TRUE (0003ms, 0493ms total)
T1B08 000:893 JLINK_ReadReg(R15 (PC))  returns 0x20000000 (0000ms, 0490ms total)
T1B08 000:893 JLINK_ClrBPEx(BPHandle = 0x0000000A)  returns 0x00 (0000ms, 0490ms total)
T1B08 000:893 JLINK_ReadReg(R0)  returns 0x00000000 (0000ms, 0490ms total)
T1B08 000:894 JLINK_WriteMem(0x20000164, 0x029C Bytes, ...) - Data: 10 B5 00 22 00 23 40 F6 6A 14 A1 42 00 D1 00 BF ... -- CPU_WriteMem(668 bytes @ 0x20000164)  returns 0x29C (0003ms, 0493ms total)
T1B08 000:897 JLINK_WriteMem(0x20000400, 0x0164 Bytes, ...) - Data: 77 FE 00 21 40 20 00 F0 73 FE 16 E0 B3 48 84 42 ... -- CPU_WriteMem(356 bytes @ 0x20000400)  returns 0x164 (0002ms, 0495ms total)
T1B08 000:899 JLINK_WriteReg(R0, 0x08001800)  returns 0x00 (0000ms, 0495ms total)
T1B08 000:899 JLINK_WriteReg(R1, 0x00000400)  returns 0x00 (0000ms, 0495ms total)
T1B08 000:899 JLINK_WriteReg(R2, 0x20000164)  returns 0x00 (0000ms, 0495ms total)
T1B08 000:899 JLINK_WriteReg(R3, 0x00000000)  returns 0x00 (0000ms, 0495ms total)
T1B08 000:899 JLINK_WriteReg(R4, 0x00000000)  returns 0x00 (0000ms, 0495ms total)
T1B08 000:899 JLINK_WriteReg(R5, 0x00000000)  returns 0x00 (0000ms, 0495ms total)
T1B08 000:899 JLINK_WriteReg(R6, 0x00000000)  returns 0x00 (0000ms, 0495ms total)
T1B08 000:899 JLINK_WriteReg(R7, 0x00000000)  returns 0x00 (0000ms, 0495ms total)
T1B08 000:899 JLINK_WriteReg(R8, 0x00000000)  returns 0x00 (0000ms, 0495ms total)
T1B08 000:899 JLINK_WriteReg(R9, 0x20000160)  returns 0x00 (0000ms, 0495ms total)
T1B08 000:900 JLINK_WriteReg(R10, 0x00000000)  returns 0x00 (0000ms, 0496ms total)
T1B08 000:900 JLINK_WriteReg(R11, 0x00000000)  returns 0x00 (0000ms, 0496ms total)
T1B08 000:900 JLINK_WriteReg(R12, 0x00000000)  returns 0x00 (0000ms, 0496ms total)
T1B08 000:900 JLINK_WriteReg(R13 (SP), 0x20000800)  returns 0x00 (0000ms, 0496ms total)
T1B08 000:900 JLINK_WriteReg(R14, 0x20000001)  returns 0x00 (0000ms, 0496ms total)
T1B08 000:900 JLINK_WriteReg(R15 (PC), 0x200000F4)  returns 0x00 (0000ms, 0496ms total)
T1B08 000:900 JLINK_WriteReg(XPSR, 0x01000000)  returns 0x00 (0000ms, 0496ms total)
T1B08 000:900 JLINK_WriteReg(MSP, 0x20000800)  returns 0x00 (0000ms, 0496ms total)
T1B08 000:900 JLINK_WriteReg(PSP, 0x20000800)  returns 0x00 (0000ms, 0496ms total)
T1B08 000:900 JLINK_WriteReg(CFBP, 0x00000000)  returns 0x00 (0000ms, 0496ms total)
T1B08 000:900 JLINK_SetBPEx(Addr = 0x20000000, Type = 0xFFFFFFF2)  returns 0x0000000B (0000ms, 0496ms total)
T1B08 000:900 JLINK_Go() -- CPU_ReadMem(4 bytes @ 0xE0001000) (0002ms, 0498ms total)
T1B08 000:902 JLINK_IsHalted()  returns FALSE (0001ms, 0499ms total)
T1B08 000:904 JLINK_IsHalted()  returns FALSE (0000ms, 0498ms total)
T1B08 000:905 JLINK_IsHalted()  returns FALSE (0000ms, 0498ms total)
T1B08 000:906 JLINK_IsHalted()  returns FALSE (0000ms, 0498ms total)
T1B08 000:907 JLINK_IsHalted()  returns FALSE (0000ms, 0498ms total)
T1B08 000:908 JLINK_IsHalted()  returns FALSE (0000ms, 0498ms total)
T1B08 000:909 JLINK_IsHalted()  returns FALSE (0000ms, 0498ms total)
T1B08 000:910 JLINK_IsHalted()  returns FALSE (0000ms, 0498ms total)
T1B08 000:911 JLINK_IsHalted()  returns FALSE (0000ms, 0498ms total)
T1B08 000:912 JLINK_IsHalted()  returns FALSE (0000ms, 0498ms total)
T1B08 000:913 JLINK_IsHalted()  returns FALSE (0000ms, 0498ms total)
T1B08 000:914 JLINK_IsHalted()  returns FALSE (0000ms, 0498ms total)
T1B08 000:915 JLINK_IsHalted()  returns FALSE (0000ms, 0498ms total)
T1B08 000:916 JLINK_IsHalted()  returns FALSE (0000ms, 0498ms total)
T1B08 000:917 JLINK_IsHalted()  returns FALSE (0000ms, 0498ms total)
T1B08 000:918 JLINK_IsHalted()  returns FALSE (0000ms, 0498ms total)
T1B08 000:919 JLINK_IsHalted()  returns FALSE (0000ms, 0498ms total)
T1B08 000:920 JLINK_IsHalted()  returns FALSE (0000ms, 0498ms total)
T1B08 000:921 JLINK_IsHalted()  returns FALSE (0000ms, 0498ms total)
T1B08 000:924 JLINK_IsHalted()  returns FALSE (0001ms, 0499ms total)
T1B08 000:926 JLINK_IsHalted()  returns FALSE (0001ms, 0499ms total)
T1B08 000:928 JLINK_IsHalted()  returns FALSE (0001ms, 0499ms total)
T1B08 000:930 JLINK_IsHalted()  returns FALSE (0001ms, 0499ms total)
T1B08 000:932 JLINK_IsHalted()  returns FALSE (0000ms, 0498ms total)
T1B08 000:933 JLINK_IsHalted() -- CPU_ReadMem(2 bytes @ 0x20000000)  returns TRUE (0004ms, 0502ms total)
T1B08 000:937 JLINK_ReadReg(R15 (PC))  returns 0x20000000 (0000ms, 0502ms total)
T1B08 000:937 JLINK_ClrBPEx(BPHandle = 0x0000000B)  returns 0x00 (0000ms, 0502ms total)
T1B08 000:937 JLINK_ReadReg(R0)  returns 0x00000000 (0000ms, 0502ms total)
T1B08 000:938 JLINK_WriteMem(0x20000164, 0x029C Bytes, ...) - Data: F0 81 4F F6 FF 71 01 80 02 21 81 70 04 21 C1 70 ... -- CPU_WriteMem(668 bytes @ 0x20000164)  returns 0x29C (0003ms, 0505ms total)
T1B08 000:941 JLINK_WriteMem(0x20000400, 0x0164 Bytes, ...) - Data: 01 60 00 21 81 80 4B F6 FF 71 C1 80 00 21 01 81 ... -- CPU_WriteMem(356 bytes @ 0x20000400)  returns 0x164 (0001ms, 0506ms total)
T1B08 000:943 JLINK_WriteReg(R0, 0x08001C00)  returns 0x00 (0000ms, 0506ms total)
T1B08 000:943 JLINK_WriteReg(R1, 0x00000400)  returns 0x00 (0000ms, 0506ms total)
T1B08 000:943 JLINK_WriteReg(R2, 0x20000164)  returns 0x00 (0000ms, 0506ms total)
T1B08 000:943 JLINK_WriteReg(R3, 0x00000000)  returns 0x00 (0000ms, 0506ms total)
T1B08 000:943 JLINK_WriteReg(R4, 0x00000000)  returns 0x00 (0000ms, 0506ms total)
T1B08 000:943 JLINK_WriteReg(R5, 0x00000000)  returns 0x00 (0000ms, 0506ms total)
T1B08 000:943 JLINK_WriteReg(R6, 0x00000000)  returns 0x00 (0000ms, 0506ms total)
T1B08 000:943 JLINK_WriteReg(R7, 0x00000000)  returns 0x00 (0000ms, 0506ms total)
T1B08 000:943 JLINK_WriteReg(R8, 0x00000000)  returns 0x00 (0000ms, 0506ms total)
T1B08 000:943 JLINK_WriteReg(R9, 0x20000160)  returns 0x00 (0000ms, 0506ms total)
T1B08 000:943 JLINK_WriteReg(R10, 0x00000000)  returns 0x00 (0000ms, 0506ms total)
T1B08 000:943 JLINK_WriteReg(R11, 0x00000000)  returns 0x00 (0000ms, 0506ms total)
T1B08 000:943 JLINK_WriteReg(R12, 0x00000000)  returns 0x00 (0000ms, 0506ms total)
T1B08 000:943 JLINK_WriteReg(R13 (SP), 0x20000800)  returns 0x00 (0000ms, 0506ms total)
T1B08 000:943 JLINK_WriteReg(R14, 0x20000001)  returns 0x00 (0000ms, 0506ms total)
T1B08 000:943 JLINK_WriteReg(R15 (PC), 0x200000F4)  returns 0x00 (0000ms, 0506ms total)
T1B08 000:943 JLINK_WriteReg(XPSR, 0x01000000)  returns 0x00 (0000ms, 0506ms total)
T1B08 000:943 JLINK_WriteReg(MSP, 0x20000800)  returns 0x00 (0000ms, 0506ms total)
T1B08 000:943 JLINK_WriteReg(PSP, 0x20000800)  returns 0x00 (0000ms, 0506ms total)
T1B08 000:943 JLINK_WriteReg(CFBP, 0x00000000)  returns 0x00 (0000ms, 0506ms total)
T1B08 000:943 JLINK_SetBPEx(Addr = 0x20000000, Type = 0xFFFFFFF2)  returns 0x0000000C (0000ms, 0506ms total)
T1B08 000:943 JLINK_Go() -- CPU_ReadMem(4 bytes @ 0xE0001000) (0002ms, 0508ms total)
T1B08 000:946 JLINK_IsHalted()  returns FALSE (0001ms, 0510ms total)
T1B08 000:948 JLINK_IsHalted()  returns FALSE (0001ms, 0510ms total)
T1B08 000:950 JLINK_IsHalted()  returns FALSE (0001ms, 0510ms total)
T1B08 000:952 JLINK_IsHalted()  returns FALSE (0001ms, 0510ms total)
T1B08 000:954 JLINK_IsHalted()  returns FALSE (0001ms, 0510ms total)
T1B08 000:956 JLINK_IsHalted()  returns FALSE (0000ms, 0509ms total)
T1B08 000:957 JLINK_IsHalted()  returns FALSE (0000ms, 0509ms total)
T1B08 000:958 JLINK_IsHalted()  returns FALSE (0000ms, 0509ms total)
T1B08 000:959 JLINK_IsHalted()  returns FALSE (0000ms, 0509ms total)
T1B08 000:960 JLINK_IsHalted()  returns FALSE (0001ms, 0510ms total)
